
**** 02/19/22 00:05:37 ******* PSpice 17.4.0 (Nov 2018) ******* ID# 0 ********

 ** Profile: "ampli_diff_5V-diff_simu_gain"  [ D:\lorenzo\projet_ampli_microphone-PSpiceFiles\ampli_diff_5V\diff_simu_gain.sim ] 


 ****     CIRCUIT DESCRIPTION


******************************************************************************




** Creating circuit file "diff_simu_gain.cir" 
** WARNING: THIS AUTOMATICALLY GENERATED FILE MAY BE OVERWRITTEN BY SUBSEQUENT SIMULATIONS

*Libraries: 
* Profile Libraries :
* Local Libraries :
* From [PSPICE NETLIST] section of Z:\cdssetup\OrCAD_PSpice\17.4.0\PSpice.ini file:
.lib "nom.lib" 

*Analysis directives: 
.AC DEC 100 10 10Meg
.OPTIONS ADVCONV
.PROBE64 V(alias(*)) I(alias(*)) W(alias(*)) D(alias(*)) NOISE(alias(*)) 
.INC "..\ampli_diff_5V.net" 



**** INCLUDING ampli_diff_5V.net ****
* source PROJET_AMPLI_MICROPHONE
R_RC2         N12277 VCC  1k TC=0,0 
R_RB3         VREF N12355  10k TC=0,0 
R_RE3         N12513 N12373  100 TC=0,0 
Q_Q2         VS2 N12343 N12373 BC238BP/ZTX 
R_RE5         N12643 0  2.2k TC=0,0 
R_RE4         N12513 N12379  100 TC=0,0 
R_RB4         VREF N12343  10k TC=0,0 
C_C5         VREF N12355  1u  TC=0,0 
Q_Q5         N12513 N12565 N12649 BC238BP/ZTX 
R_RE6         0 N12649  220 TC=0,0 
V_V7         VREF 0 2.5V
Q_Q3         N12277 N12355 N12379 BC238BP/ZTX 
Q_Q4         N12565 N12565 N12643 BC238BP/ZTX 
R_RC1         VS2 VCC  1k TC=0,0 
R_RB5         N12565 VREF  2.2k TC=0,0 
V_V6         VCC 0 5Vdc
R_R6         N13116 VE  50 TC=0,0 
V_V3         N13116 0  AC 1m
+SIN 0 1m 1k 0 0 0
C_C1         VE N12343  1u  TC=0,0 

**** RESUMING diff_simu_gain.cir ****
.END

**** 02/19/22 00:05:37 ******* PSpice 17.4.0 (Nov 2018) ******* ID# 0 ********

 ** Profile: "ampli_diff_5V-diff_simu_gain"  [ D:\lorenzo\projet_ampli_microphone-PSpiceFiles\ampli_diff_5V\diff_simu_gain.sim ] 


 ****     BJT MODEL PARAMETERS


******************************************************************************




               BC238BP/ZTX     
               NPN             
       LEVEL    1            
          IS   18.000000E-15 
          BF  400            
          NF     .9955       
         VAF   80            
         IKF     .14         
         ISE   50.000000E-15 
          NE    1.46         
          BR   35.5          
          NR    1.005        
         VAR   12.5          
         IKR     .03         
         ISC  172.000000E-15 
          NC    1.27         
         ISS    0            
          RB     .56         
          RE     .6          
          RC     .25         
         CJE   13.000000E-12 
         VJE     .75         
         CJC    4.000000E-12 
         VJC     .54         
         MJC     .33         
        XCJC    1            
         CJS    0            
         VJS     .75         
          TF  640.000000E-12 
          TR   50.720000E-09 
          KF    0            
          AF    1            
          CN    2.42         
           D     .87         


**** 02/19/22 00:05:37 ******* PSpice 17.4.0 (Nov 2018) ******* ID# 0 ********

 ** Profile: "ampli_diff_5V-diff_simu_gain"  [ D:\lorenzo\projet_ampli_microphone-PSpiceFiles\ampli_diff_5V\diff_simu_gain.sim ] 


 ****     SMALL SIGNAL BIAS SOLUTION       TEMPERATURE =   27.000 DEG C


******************************************************************************



 NODE   VOLTAGE     NODE   VOLTAGE     NODE   VOLTAGE     NODE   VOLTAGE


(   VE)    0.0000  (  VCC)    5.0000  (  VS2)    3.0444  ( VREF)    2.5000      

(N12277)    3.0444 (N12343)    2.4306 (N12355)    2.4306 (N12373)    1.7736     

(N12379)    1.7736 (N12513)    1.5773 (N12565)    1.5433 (N12643)     .9270     

(N12649)     .8665 (N13116)    0.0000 




    VOLTAGE SOURCE CURRENTS
    NAME         CURRENT

    V_V7        -4.488E-04
    V_V6        -3.911E-03
    V_V3         0.000E+00

    TOTAL POWER DISSIPATION   2.07E-02  WATTS



          JOB CONCLUDED

**** 02/19/22 00:05:37 ******* PSpice 17.4.0 (Nov 2018) ******* ID# 0 ********

 ** Profile: "ampli_diff_5V-diff_simu_gain"  [ D:\lorenzo\projet_ampli_microphone-PSpiceFiles\ampli_diff_5V\diff_simu_gain.sim ] 


 ****     JOB STATISTICS SUMMARY


******************************************************************************



  License check-out time            =        3.93
  Total job time (using Solver 1)   =         .05
